date Mon Aug 17 10:00:00 2026
base hex timestamps absolute
   00.010000 1  100             Rx   d 8 80 0C 32 82 01 00 00 00
   00.010000 1  102             Rx   d 8 00 00 00 00 00 00 00 00
   00.010000 1  101             Rx   d 8 01 00 00 00 00 00 00 00
   00.010000 1  200             Rx   d 8 04 00 00 00 00 00 00 00
   00.020000 1  100             Rx   d 8 A8 0C 32 82 02 00 00 00
   00.020000 1  102             Rx   d 8 28 00 00 00 00 00 00 00
   00.030000 1  100             Rx   d 8 D0 0C 32 82 03 00 00 00
   00.030000 1  102             Rx   d 8 50 00 00 00 00 00 00 00
   00.030000 1  101             Rx   d 8 01 00 00 00 00 00 00 00
   00.040000 1  100             Rx   d 8 F8 0C 32 82 04 00 00 00
   00.040000 1  102             Rx   d 8 78 00 00 00 00 00 00 00
   00.050000 1  100             Rx   d 8 20 0D 32 82 05 00 00 00
   00.050000 1  102             Rx   d 8 A0 00 00 00 00 00 00 00
   00.050000 1  101             Rx   d 8 01 00 00 00 00 00 00 00
   00.060000 1  100             Rx   d 8 48 0D 32 82 06 00 00 00
   00.060000 1  102             Rx   d 8 C8 00 00 00 00 00 00 00
   00.070000 1  100             Rx   d 8 70 0D 32 82 07 00 00 00
   00.070000 1  102             Rx   d 8 F0 00 00 00 00 00 00 00
   00.070000 1  101             Rx   d 8 01 00 00 00 00 00 00 00
   00.080000 1  100             Rx   d 8 98 0D 32 82 08 00 00 00
   00.080000 1  102             Rx   d 8 18 01 00 00 00 00 00 00
   00.090000 1  100             Rx   d 8 C0 0D 32 82 09 00 00 00
   00.090000 1  102             Rx   d 8 40 01 00 00 00 00 00 00
   00.090000 1  101             Rx   d 8 01 00 00 00 00 00 00 00
   00.100000 1  100             Rx   d 8 E8 0D 32 82 0A 00 00 00
   00.100000 1  102             Rx   d 8 68 01 00 00 00 00 00 00
   00.110000 1  100             Rx   d 8 10 0E 32 82 0B 00 00 00
   00.110000 1  102             Rx   d 8 90 01 00 00 00 00 00 00
   00.110000 1  101             Rx   d 8 01 00 00 00 00 00 00 00
   00.110000 1  200             Rx   d 8 04 00 00 00 00 00 00 00
   00.120000 1  100             Rx   d 8 38 0E 32 82 0C 00 00 00
   00.120000 1  102             Rx   d 8 B8 01 00 00 00 00 00 00
   00.130000 1  100             Rx   d 8 60 0E 32 82 0D 00 00 00
   00.130000 1  102             Rx   d 8 E0 01 00 00 00 00 00 00
   00.130000 1  101             Rx   d 8 01 00 00 00 00 00 00 00
   00.140000 1  100             Rx   d 8 88 0E 32 82 0E 00 00 00
   00.140000 1  102             Rx   d 8 08 02 00 00 00 00 00 00
   00.150000 1  100             Rx   d 8 B0 0E 32 82 0F 00 00 00
   00.150000 1  102             Rx   d 8 30 02 00 00 00 00 00 00
   00.150000 1  101             Rx   d 8 01 00 00 00 00 00 00 00
   00.160000 1  100             Rx   d 8 D8 0E 32 82 00 00 00 00
   00.160000 1  102             Rx   d 8 58 02 00 00 00 00 00 00
   00.170000 1  100             Rx   d 8 00 0F 32 82 01 00 00 00
   00.170000 1  102             Rx   d 8 80 02 00 00 00 00 00 00
   00.170000 1  101             Rx   d 8 01 00 00 00 00 00 00 00
   00.180000 1  100             Rx   d 8 28 0F 32 82 02 00 00 00
   00.180000 1  102             Rx   d 8 A8 02 00 00 00 00 00 00
   00.190000 1  100             Rx   d 8 50 0F 32 82 03 00 00 00
   00.190000 1  102             Rx   d 8 D0 02 00 00 00 00 00 00
   00.190000 1  101             Rx   d 8 01 00 00 00 00 00 00 00
   00.200000 1  100             Rx   d 8 78 0F 32 82 04 00 00 00
   00.200000 1  102             Rx   d 8 F8 02 00 00 00 00 00 00
   00.210000 1  100             Rx   d 8 A0 0F 32 82 05 00 00 00
   00.210000 1  102             Rx   d 8 20 03 00 00 00 00 00 00
   00.210000 1  101             Rx   d 8 01 00 00 00 00 00 00 00
   00.210000 1  200             Rx   d 8 04 00 00 00 00 00 00 00
   00.220000 1  100             Rx   d 8 C8 0F 32 82 06 00 00 00
   00.220000 1  102             Rx   d 8 48 03 00 00 00 00 00 00
   00.230000 1  100             Rx   d 8 F0 0F 32 82 07 00 00 00
   00.230000 1  102             Rx   d 8 70 03 00 00 00 00 00 00
   00.230000 1  101             Rx   d 8 01 00 00 00 00 00 00 00
   00.240000 1  100             Rx   d 8 18 10 32 82 08 00 00 00
   00.240000 1  102             Rx   d 8 98 03 00 00 00 00 00 00
   00.250000 1  100             Rx   d 8 40 10 32 82 09 00 00 00
   00.250000 1  102             Rx   d 8 C0 03 00 00 00 00 00 00
   00.250000 1  101             Rx   d 8 01 00 00 00 00 00 00 00
   00.260000 1  100             Rx   d 8 68 10 32 82 0A 00 00 00
   00.260000 1  102             Rx   d 8 E8 03 00 00 00 00 00 00
   00.270000 1  100             Rx   d 8 90 10 32 82 0B 00 00 00
   00.270000 1  102             Rx   d 8 10 04 00 00 00 00 00 00
   00.270000 1  101             Rx   d 8 03 00 00 00 00 00 00 00
   00.280000 1  100             Rx   d 8 B8 10 32 82 0C 00 00 00
   00.280000 1  102             Rx   d 8 38 04 00 00 00 00 00 00
   00.290000 1  100             Rx   d 8 E0 10 32 82 0D 00 00 00
   00.290000 1  102             Rx   d 8 60 04 00 00 00 00 00 00
   00.290000 1  101             Rx   d 8 03 00 00 00 00 00 00 00
   00.300000 1  100             Rx   d 8 08 11 32 82 0E 00 00 00
   00.300000 1  102             Rx   d 8 88 04 00 00 00 00 00 00
   00.310000 1  100             Rx   d 8 30 11 32 82 0F 00 00 00
   00.310000 1  102             Rx   d 8 B0 04 00 00 00 00 00 00
   00.310000 1  101             Rx   d 8 03 00 00 00 00 00 00 00
   00.310000 1  200             Rx   d 8 04 00 00 00 00 00 00 00
   00.320000 1  100             Rx   d 8 58 11 32 82 00 00 00 00
   00.320000 1  102             Rx   d 8 D8 04 00 00 00 00 00 00
   00.330000 1  100             Rx   d 8 80 11 32 82 01 00 00 00
   00.330000 1  102             Rx   d 8 00 05 00 00 00 00 00 00
   00.330000 1  101             Rx   d 8 03 00 00 00 00 00 00 00
   00.340000 1  100             Rx   d 8 A8 11 32 82 02 00 00 00
   00.340000 1  102             Rx   d 8 28 05 00 00 00 00 00 00
   00.350000 1  100             Rx   d 8 D0 11 32 82 03 00 00 00
   00.350000 1  102             Rx   d 8 50 05 00 00 00 00 00 00
   00.350000 1  101             Rx   d 8 03 00 00 00 00 00 00 00
   00.360000 1  100             Rx   d 8 F8 11 32 82 04 00 00 00
   00.360000 1  102             Rx   d 8 78 05 00 00 00 00 00 00
   00.370000 1  100             Rx   d 8 20 12 32 82 05 00 00 00
   00.370000 1  102             Rx   d 8 A0 05 00 00 00 00 00 00
   00.370000 1  101             Rx   d 8 03 00 00 00 00 00 00 00
   00.380000 1  100             Rx   d 8 48 12 32 82 06 00 00 00
   00.380000 1  102             Rx   d 8 C8 05 00 00 00 00 00 00
   00.390000 1  100             Rx   d 8 70 12 32 82 07 00 00 00
   00.390000 1  102             Rx   d 8 F0 05 00 00 00 00 00 00
   00.390000 1  101             Rx   d 8 03 00 00 00 00 00 00 00
   00.400000 1  100             Rx   d 8 98 12 32 82 08 00 00 00
   00.400000 1  102             Rx   d 8 18 06 00 00 00 00 00 00
   00.410000 1  100             Rx   d 8 C0 12 32 82 09 00 00 00
   00.410000 1  102             Rx   d 8 40 06 00 00 00 00 00 00
   00.410000 1  101             Rx   d 8 03 00 00 00 00 00 00 00
   00.410000 1  200             Rx   d 8 04 00 00 00 00 00 00 00
   00.420000 1  100             Rx   d 8 E8 12 32 82 0A 00 00 00
   00.420000 1  102             Rx   d 8 68 06 00 00 00 00 00 00
   00.430000 1  100             Rx   d 8 10 13 32 82 0B 00 00 00
   00.430000 1  102             Rx   d 8 90 06 00 00 00 00 00 00
   00.430000 1  101             Rx   d 8 03 00 00 00 00 00 00 00
   00.440000 1  100             Rx   d 8 38 13 32 82 0C 00 00 00
   00.440000 1  102             Rx   d 8 B8 06 00 00 00 00 00 00
   00.450000 1  100             Rx   d 8 60 13 32 82 0D 00 00 00
   00.450000 1  102             Rx   d 8 E0 06 00 00 00 00 00 00
   00.450000 1  101             Rx   d 8 03 00 00 00 00 00 00 00
   00.460000 1  100             Rx   d 8 88 13 32 82 0E 00 00 00
   00.460000 1  102             Rx   d 8 08 07 00 00 00 00 00 00
   00.470000 1  100             Rx   d 8 B0 13 32 82 0F 00 00 00
   00.470000 1  102             Rx   d 8 30 07 00 00 00 00 00 00
   00.470000 1  101             Rx   d 8 03 00 00 00 00 00 00 00
   00.480000 1  100             Rx   d 8 D8 13 32 82 00 00 00 00
   00.480000 1  102             Rx   d 8 58 07 00 00 00 00 00 00
   00.490000 1  100             Rx   d 8 00 14 32 82 01 00 00 00
   00.490000 1  102             Rx   d 8 80 07 00 00 00 00 00 00
   00.490000 1  101             Rx   d 8 03 00 00 00 00 00 00 00
   00.500000 1  100             Rx   d 8 28 14 32 82 02 00 00 00
   00.500000 1  102             Rx   d 8 A8 07 00 00 00 00 00 00
   00.510000 1  100             Rx   d 8 50 14 32 82 03 00 00 00
   00.510000 1  102             Rx   d 8 D0 07 00 00 00 00 00 00
   00.510000 1  101             Rx   d 8 03 00 00 00 00 00 00 00
   00.510000 1  200             Rx   d 8 04 00 00 00 00 00 00 00
   00.520000 1  100             Rx   d 8 78 14 32 82 04 00 00 00
   00.520000 1  102             Rx   d 8 F8 07 00 00 00 00 00 00
   00.530000 1  100             Rx   d 8 A0 14 32 82 05 00 00 00
   00.530000 1  102             Rx   d 8 20 08 00 00 00 00 00 00
   00.530000 1  101             Rx   d 8 03 00 00 00 00 00 00 00
   00.540000 1  100             Rx   d 8 C8 14 32 82 06 00 00 00
   00.540000 1  102             Rx   d 8 48 08 00 00 00 00 00 00
   00.550000 1  100             Rx   d 8 F0 14 32 82 07 00 00 00
   00.550000 1  102             Rx   d 8 70 08 00 00 00 00 00 00
   00.550000 1  101             Rx   d 8 03 00 00 00 00 00 00 00
   00.560000 1  100             Rx   d 8 18 15 32 82 08 00 00 00
   00.560000 1  102             Rx   d 8 98 08 00 00 00 00 00 00
   00.570000 1  100             Rx   d 8 40 15 32 82 09 00 00 00
   00.570000 1  102             Rx   d 8 C0 08 00 00 00 00 00 00
   00.570000 1  101             Rx   d 8 03 00 00 00 00 00 00 00
   00.580000 1  100             Rx   d 8 68 15 32 82 0A 00 00 00
   00.580000 1  102             Rx   d 8 E8 08 00 00 00 00 00 00
   00.590000 1  100             Rx   d 8 90 15 32 82 0B 00 00 00
   00.590000 1  102             Rx   d 8 10 09 00 00 00 00 00 00
   00.590000 1  101             Rx   d 8 03 00 00 00 00 00 00 00
   00.600000 1  100             Rx   d 8 B8 15 32 82 0C 00 00 00
   00.600000 1  102             Rx   d 8 38 09 00 00 00 00 00 00
   00.610000 1  100             Rx   d 8 E0 15 32 82 0D 00 00 00
   00.610000 1  102             Rx   d 8 60 09 00 00 00 00 00 00
   00.610000 1  101             Rx   d 8 03 00 00 00 00 00 00 00
   00.610000 1  200             Rx   d 8 04 00 00 00 00 00 00 00
   00.620000 1  100             Rx   d 8 08 16 32 82 0E 00 00 00
   00.620000 1  102             Rx   d 8 88 09 00 00 00 00 00 00
   00.630000 1  100             Rx   d 8 30 16 32 82 0F 00 00 00
   00.630000 1  102             Rx   d 8 B0 09 00 00 00 00 00 00
   00.630000 1  101             Rx   d 8 03 00 00 00 00 00 00 00
   00.640000 1  100             Rx   d 8 58 16 32 82 00 00 00 00
   00.640000 1  102             Rx   d 8 D8 09 00 00 00 00 00 00
   00.650000 1  100             Rx   d 8 80 16 32 82 01 00 00 00
   00.650000 1  102             Rx   d 8 00 0A 00 00 00 00 00 00
   00.650000 1  101             Rx   d 8 03 00 00 00 00 00 00 00
   00.660000 1  100             Rx   d 8 A8 16 32 82 02 00 00 00
   00.660000 1  102             Rx   d 8 28 0A 00 00 00 00 00 00
   00.670000 1  100             Rx   d 8 D0 16 32 82 03 00 00 00
   00.670000 1  102             Rx   d 8 50 0A 00 00 00 00 00 00
   00.670000 1  101             Rx   d 8 03 00 00 00 00 00 00 00
   00.680000 1  100             Rx   d 8 F8 16 32 82 04 00 00 00
   00.680000 1  102             Rx   d 8 78 0A 00 00 00 00 00 00
   00.690000 1  100             Rx   d 8 20 17 32 82 05 00 00 00
   00.690000 1  102             Rx   d 8 A0 0A 00 00 00 00 00 00
   00.690000 1  101             Rx   d 8 03 00 00 00 00 00 00 00
   00.700000 1  100             Rx   d 8 48 17 32 82 06 00 00 00
   00.700000 1  102             Rx   d 8 C8 0A 00 00 00 00 00 00
   00.710000 1  100             Rx   d 8 70 17 32 82 07 00 00 00
   00.710000 1  102             Rx   d 8 F0 0A 00 00 00 00 00 00
   00.710000 1  101             Rx   d 8 03 00 00 00 00 00 00 00
   00.710000 1  200             Rx   d 8 04 00 00 00 00 00 00 00
   00.720000 1  100             Rx   d 8 98 17 32 82 08 00 00 00
   00.720000 1  102             Rx   d 8 18 0B 00 00 00 00 00 00
   00.730000 1  100             Rx   d 8 C0 17 32 82 09 00 00 00
   00.730000 1  102             Rx   d 8 40 0B 00 00 00 00 00 00
   00.730000 1  101             Rx   d 8 03 00 00 00 00 00 00 00
   00.740000 1  100             Rx   d 8 E8 17 32 82 0A 00 00 00
   00.740000 1  102             Rx   d 8 68 0B 00 00 00 00 00 00
   00.750000 1  100             Rx   d 8 10 18 32 82 0B 00 00 00
   00.750000 1  102             Rx   d 8 90 0B 00 00 00 00 00 00
   00.750000 1  101             Rx   d 8 03 00 00 00 00 00 00 00
   00.760000 1  100             Rx   d 8 38 18 32 82 0C 00 00 00
   00.760000 1  102             Rx   d 8 B8 0B 00 00 00 00 00 00
   00.770000 1  100             Rx   d 8 60 18 32 82 0D 00 00 00
   00.770000 1  102             Rx   d 8 E0 0B 00 00 00 00 00 00
   00.770000 1  101             Rx   d 8 03 00 00 00 00 00 00 00
   00.780000 1  100             Rx   d 8 88 18 32 82 0E 00 00 00
   00.780000 1  102             Rx   d 8 08 0C 00 00 00 00 00 00
   00.790000 1  100             Rx   d 8 B0 18 32 82 0F 00 00 00
   00.790000 1  102             Rx   d 8 30 0C 00 00 00 00 00 00
   00.790000 1  101             Rx   d 8 03 00 00 00 00 00 00 00
   00.800000 1  100             Rx   d 8 D8 18 32 82 00 00 00 00
   00.800000 1  102             Rx   d 8 58 0C 00 00 00 00 00 00
   00.810000 1  100             Rx   d 8 00 19 32 82 01 00 00 00
   00.810000 1  102             Rx   d 8 80 0C 00 00 00 00 00 00
   00.810000 1  101             Rx   d 8 03 00 00 00 00 00 00 00
   00.810000 1  200             Rx   d 8 04 00 00 00 00 00 00 00
   00.820000 1  100             Rx   d 8 28 19 32 82 02 00 00 00
   00.820000 1  102             Rx   d 8 A8 0C 00 00 00 00 00 00
   00.830000 1  100             Rx   d 8 50 19 32 82 03 00 00 00
   00.830000 1  102             Rx   d 8 D0 0C 00 00 00 00 00 00
   00.830000 1  101             Rx   d 8 03 00 00 00 00 00 00 00
   00.840000 1  100             Rx   d 8 78 19 32 82 04 00 00 00
   00.840000 1  102             Rx   d 8 F8 0C 00 00 00 00 00 00
   00.850000 1  100             Rx   d 8 A0 19 32 82 05 00 00 00
   00.850000 1  102             Rx   d 8 20 0D 00 00 00 00 00 00
   00.850000 1  101             Rx   d 8 03 00 00 00 00 00 00 00
   00.860000 1  100             Rx   d 8 C8 19 32 82 06 00 00 00
   00.860000 1  102             Rx   d 8 48 0D 00 00 00 00 00 00
   00.870000 1  100             Rx   d 8 F0 19 32 82 07 00 00 00
   00.870000 1  102             Rx   d 8 70 0D 00 00 00 00 00 00
   00.870000 1  101             Rx   d 8 03 00 00 00 00 00 00 00
   00.880000 1  100             Rx   d 8 18 1A 32 82 08 00 00 00
   00.880000 1  102             Rx   d 8 98 0D 00 00 00 00 00 00
   00.890000 1  100             Rx   d 8 40 1A 32 82 09 00 00 00
   00.890000 1  102             Rx   d 8 C0 0D 00 00 00 00 00 00
   00.890000 1  101             Rx   d 8 03 00 00 00 00 00 00 00
   00.900000 1  100             Rx   d 8 68 1A 32 82 0A 00 00 00
   00.900000 1  102             Rx   d 8 E8 0D 00 00 00 00 00 00
   00.910000 1  100             Rx   d 8 90 1A 32 82 0B 00 00 00
   00.910000 1  102             Rx   d 8 10 0E 00 00 00 00 00 00
   00.910000 1  101             Rx   d 8 03 00 00 00 00 00 00 00
   00.910000 1  200             Rx   d 8 04 00 00 00 00 00 00 00
   00.920000 1  100             Rx   d 8 B8 1A 32 82 0C 00 00 00
   00.920000 1  102             Rx   d 8 38 0E 00 00 00 00 00 00
   00.930000 1  100             Rx   d 8 E0 1A 32 82 0D 00 00 00
   00.930000 1  102             Rx   d 8 60 0E 00 00 00 00 00 00
   00.930000 1  101             Rx   d 8 03 00 00 00 00 00 00 00
   00.940000 1  100             Rx   d 8 08 1B 32 82 0E 00 00 00
   00.940000 1  102             Rx   d 8 88 0E 00 00 00 00 00 00
   00.950000 1  100             Rx   d 8 30 1B 32 82 0F 00 00 00
   00.950000 1  102             Rx   d 8 B0 0E 00 00 00 00 00 00
   00.950000 1  101             Rx   d 8 03 00 00 00 00 00 00 00
   00.960000 1  100             Rx   d 8 58 1B 32 82 00 00 00 00
   00.960000 1  102             Rx   d 8 D8 0E 00 00 00 00 00 00
   00.970000 1  100             Rx   d 8 80 1B 32 82 01 00 00 00
   00.970000 1  102             Rx   d 8 00 0F 00 00 00 00 00 00
   00.970000 1  101             Rx   d 8 03 00 00 00 00 00 00 00
   00.980000 1  100             Rx   d 8 A8 1B 32 82 02 00 00 00
   00.980000 1  102             Rx   d 8 28 0F 00 00 00 00 00 00
   00.990000 1  100             Rx   d 8 D0 1B 32 82 03 00 00 00
   00.990000 1  102             Rx   d 8 50 0F 00 00 00 00 00 00
   00.990000 1  101             Rx   d 8 03 00 00 00 00 00 00 00
   01.000000 1  100             Rx   d 8 F8 1B 32 82 04 00 00 00
   01.000000 1  102             Rx   d 8 78 0F 00 00 00 00 00 00
   01.010000 1  100             Rx   d 8 20 1C 32 82 05 00 00 00
   01.010000 1  102             Rx   d 8 A0 0F 00 00 00 00 00 00
   01.010000 1  101             Rx   d 8 03 00 00 00 00 00 00 00
   01.010000 1  200             Rx   d 8 04 00 00 00 00 00 00 00
   01.020000 1  100             Rx   d 8 48 1C 32 82 06 00 00 00
   01.020000 1  102             Rx   d 8 C8 0F 00 00 00 00 00 00
   01.030000 1  100             Rx   d 8 70 1C 32 82 07 00 00 00
   01.030000 1  102             Rx   d 8 F0 0F 00 00 00 00 00 00
   01.030000 1  101             Rx   d 8 03 00 00 00 00 00 00 00
   01.040000 1  100             Rx   d 8 98 1C 32 82 08 00 00 00
   01.040000 1  102             Rx   d 8 18 10 00 00 00 00 00 00
   01.050000 1  100             Rx   d 8 C0 1C 32 82 09 00 00 00
   01.050000 1  102             Rx   d 8 40 10 00 00 00 00 00 00
   01.050000 1  101             Rx   d 8 03 00 00 00 00 00 00 00
   01.060000 1  100             Rx   d 8 E8 1C 32 82 0A 00 00 00
   01.060000 1  102             Rx   d 8 68 10 00 00 00 00 00 00
   01.070000 1  100             Rx   d 8 10 1D 32 82 0B 00 00 00
   01.070000 1  102             Rx   d 8 90 10 00 00 00 00 00 00
   01.070000 1  101             Rx   d 8 03 00 00 00 00 00 00 00
   01.080000 1  100             Rx   d 8 38 1D 32 82 0C 00 00 00
   01.080000 1  102             Rx   d 8 B8 10 00 00 00 00 00 00
   01.090000 1  100             Rx   d 8 60 1D 32 82 0D 00 00 00
   01.090000 1  102             Rx   d 8 E0 10 00 00 00 00 00 00
   01.090000 1  101             Rx   d 8 03 00 00 00 00 00 00 00
   01.100000 1  100             Rx   d 8 88 1D 32 82 0E 00 00 00
   01.100000 1  102             Rx   d 8 08 11 00 00 00 00 00 00
   01.110000 1  100             Rx   d 8 B0 1D 32 82 0F 00 00 00
   01.110000 1  102             Rx   d 8 30 11 00 00 00 00 00 00
   01.110000 1  101             Rx   d 8 03 00 00 00 00 00 00 00
   01.110000 1  200             Rx   d 8 04 00 00 00 00 00 00 00
   01.120000 1  100             Rx   d 8 D8 1D 32 82 00 00 00 00
   01.120000 1  102             Rx   d 8 58 11 00 00 00 00 00 00
   01.130000 1  100             Rx   d 8 00 1E 32 82 01 00 00 00
   01.130000 1  102             Rx   d 8 80 11 00 00 00 00 00 00
   01.130000 1  101             Rx   d 8 03 00 00 00 00 00 00 00
   01.140000 1  100             Rx   d 8 28 1E 32 82 02 00 00 00
   01.140000 1  102             Rx   d 8 A8 11 00 00 00 00 00 00
   01.150000 1  100             Rx   d 8 50 1E 32 82 03 00 00 00
   01.150000 1  102             Rx   d 8 D0 11 00 00 00 00 00 00
   01.150000 1  101             Rx   d 8 03 00 00 00 00 00 00 00
   01.160000 1  100             Rx   d 8 78 1E 32 82 04 00 00 00
   01.160000 1  102             Rx   d 8 F8 11 00 00 00 00 00 00
   01.170000 1  100             Rx   d 8 A0 1E 32 82 05 00 00 00
   01.170000 1  102             Rx   d 8 20 12 00 00 00 00 00 00
   01.170000 1  101             Rx   d 8 03 00 00 00 00 00 00 00
   01.180000 1  100             Rx   d 8 C8 1E 32 82 06 00 00 00
   01.180000 1  102             Rx   d 8 48 12 00 00 00 00 00 00
   01.190000 1  100             Rx   d 8 F0 1E 32 82 07 00 00 00
   01.190000 1  102             Rx   d 8 70 12 00 00 00 00 00 00
   01.190000 1  101             Rx   d 8 03 00 00 00 00 00 00 00
   01.200000 1  100             Rx   d 8 18 1F 32 82 08 00 00 00
   01.200000 1  102             Rx   d 8 98 12 00 00 00 00 00 00
   01.210000 1  100             Rx   d 8 40 1F 32 82 09 00 00 00
   01.210000 1  102             Rx   d 8 C0 12 00 00 00 00 00 00
   01.210000 1  101             Rx   d 8 03 00 00 00 00 00 00 00
   01.210000 1  200             Rx   d 8 04 00 00 00 00 00 00 00
   01.220000 1  100             Rx   d 8 68 1F 32 82 0A 00 00 00
   01.220000 1  102             Rx   d 8 E8 12 00 00 00 00 00 00
   01.230000 1  100             Rx   d 8 90 1F 32 82 0B 00 00 00
   01.230000 1  102             Rx   d 8 10 13 00 00 00 00 00 00
   01.230000 1  101             Rx   d 8 03 00 00 00 00 00 00 00
   01.240000 1  100             Rx   d 8 B8 1F 32 82 0C 00 00 00
   01.240000 1  102             Rx   d 8 38 13 00 00 00 00 00 00
   01.250000 1  100             Rx   d 8 E0 1F 32 82 0D 00 00 00
   01.250000 1  102             Rx   d 8 60 13 00 00 00 00 00 00
   01.250000 1  101             Rx   d 8 03 00 00 00 00 00 00 00
   01.260000 1  100             Rx   d 8 08 20 32 82 0E 00 00 00
   01.260000 1  102             Rx   d 8 88 13 00 00 00 00 00 00
   01.270000 1  100             Rx   d 8 30 20 32 82 0F 00 00 00
   01.270000 1  102             Rx   d 8 B0 13 00 00 00 00 00 00
   01.270000 1  101             Rx   d 8 03 00 00 00 00 00 00 00
   01.280000 1  100             Rx   d 8 58 20 32 82 00 00 00 00
   01.280000 1  102             Rx   d 8 D8 13 00 00 00 00 00 00
   01.290000 1  100             Rx   d 8 80 20 32 82 01 00 00 00
   01.290000 1  102             Rx   d 8 00 14 00 00 00 00 00 00
   01.290000 1  101             Rx   d 8 03 00 00 00 00 00 00 00
   01.300000 1  100             Rx   d 8 A8 20 32 82 02 00 00 00
   01.300000 1  102             Rx   d 8 28 14 00 00 00 00 00 00
   01.310000 1  100             Rx   d 8 D0 20 32 82 03 00 00 00
   01.310000 1  102             Rx   d 8 50 14 00 00 00 00 00 00
   01.310000 1  101             Rx   d 8 03 00 00 00 00 00 00 00
   01.310000 1  200             Rx   d 8 04 00 00 00 00 00 00 00
   01.320000 1  100             Rx   d 8 F8 20 32 82 04 00 00 00
   01.320000 1  102             Rx   d 8 78 14 00 00 00 00 00 00
   01.330000 1  100             Rx   d 8 20 21 32 82 05 00 00 00
   01.330000 1  102             Rx   d 8 A0 14 00 00 00 00 00 00
   01.330000 1  101             Rx   d 8 03 00 00 00 00 00 00 00
   01.340000 1  100             Rx   d 8 48 21 32 82 06 00 00 00
   01.340000 1  102             Rx   d 8 C8 14 00 00 00 00 00 00
   01.350000 1  100             Rx   d 8 70 21 32 82 07 00 00 00
   01.350000 1  102             Rx   d 8 F0 14 00 00 00 00 00 00
   01.350000 1  101             Rx   d 8 03 00 00 00 00 00 00 00
   01.360000 1  100             Rx   d 8 98 21 32 82 08 00 00 00
   01.360000 1  102             Rx   d 8 18 15 00 00 00 00 00 00
   01.370000 1  100             Rx   d 8 C0 21 32 82 09 00 00 00
   01.370000 1  102             Rx   d 8 40 15 00 00 00 00 00 00
   01.370000 1  101             Rx   d 8 03 00 00 00 00 00 00 00
   01.380000 1  100             Rx   d 8 E8 21 32 82 0A 00 00 00
   01.380000 1  102             Rx   d 8 68 15 00 00 00 00 00 00
   01.390000 1  100             Rx   d 8 10 22 32 82 0B 00 00 00
   01.390000 1  102             Rx   d 8 90 15 00 00 00 00 00 00
   01.390000 1  101             Rx   d 8 03 00 00 00 00 00 00 00
   01.400000 1  100             Rx   d 8 38 22 32 82 0C 00 00 00
   01.400000 1  102             Rx   d 8 B8 15 00 00 00 00 00 00
   01.410000 1  100             Rx   d 8 60 22 32 82 0D 00 00 00
   01.410000 1  102             Rx   d 8 E0 15 00 00 00 00 00 00
   01.410000 1  101             Rx   d 8 03 00 00 00 00 00 00 00
   01.410000 1  200             Rx   d 8 04 00 00 00 00 00 00 00
   01.420000 1  100             Rx   d 8 88 22 32 82 0E 00 00 00
   01.420000 1  102             Rx   d 8 08 16 00 00 00 00 00 00
   01.430000 1  100             Rx   d 8 B0 22 32 82 0F 00 00 00
   01.430000 1  102             Rx   d 8 30 16 00 00 00 00 00 00
   01.430000 1  101             Rx   d 8 03 00 00 00 00 00 00 00
   01.440000 1  100             Rx   d 8 D8 22 32 82 00 00 00 00
   01.440000 1  102             Rx   d 8 58 16 00 00 00 00 00 00
   01.450000 1  100             Rx   d 8 00 23 32 82 01 00 00 00
   01.450000 1  102             Rx   d 8 80 16 00 00 00 00 00 00
   01.450000 1  101             Rx   d 8 03 00 00 00 00 00 00 00
   01.460000 1  100             Rx   d 8 28 23 32 82 02 00 00 00
   01.460000 1  102             Rx   d 8 A8 16 00 00 00 00 00 00
   01.470000 1  100             Rx   d 8 50 23 32 82 03 00 00 00
   01.470000 1  102             Rx   d 8 D0 16 00 00 00 00 00 00
   01.470000 1  101             Rx   d 8 03 00 00 00 00 00 00 00
   01.480000 1  100             Rx   d 8 78 23 32 82 04 00 00 00
   01.480000 1  102             Rx   d 8 F8 16 00 00 00 00 00 00
   01.490000 1  100             Rx   d 8 A0 23 32 82 05 00 00 00
   01.490000 1  102             Rx   d 8 20 17 00 00 00 00 00 00
   01.490000 1  101             Rx   d 8 03 00 00 00 00 00 00 00
   01.500000 1  100             Rx   d 8 C8 23 32 82 06 00 00 00
   01.500000 1  102             Rx   d 8 48 17 00 00 00 00 00 00
   01.510000 1  100             Rx   d 8 F0 23 32 82 07 00 00 00
   01.510000 1  102             Rx   d 8 70 17 00 00 00 00 00 00
   01.510000 1  101             Rx   d 8 03 00 00 00 00 00 00 00
   01.510000 1  200             Rx   d 8 04 00 00 00 00 00 00 00
   01.520000 1  100             Rx   d 8 F0 23 32 82 08 00 00 00
   01.520000 1  102             Rx   d 8 70 17 00 00 00 00 00 00
   01.530000 1  100             Rx   d 8 F0 23 32 82 09 00 00 00
   01.530000 1  102             Rx   d 8 70 17 00 00 00 00 00 00
   01.530000 1  101             Rx   d 8 03 00 00 00 00 00 00 00
   01.540000 1  100             Rx   d 8 F0 23 32 82 0A 00 00 00
   01.540000 1  102             Rx   d 8 70 17 00 00 00 00 00 00
   01.550000 1  100             Rx   d 8 F0 23 32 82 0B 00 00 00
   01.550000 1  102             Rx   d 8 70 17 00 00 00 00 00 00
   01.550000 1  101             Rx   d 8 03 00 00 00 00 00 00 00
   01.560000 1  100             Rx   d 8 F0 23 32 82 0C 00 00 00
   01.560000 1  102             Rx   d 8 70 17 00 00 00 00 00 00
   01.570000 1  100             Rx   d 8 F0 23 32 82 0D 00 00 00
   01.570000 1  102             Rx   d 8 70 17 00 00 00 00 00 00
   01.570000 1  101             Rx   d 8 03 00 00 00 00 00 00 00
   01.580000 1  100             Rx   d 8 F0 23 32 82 0E 00 00 00
   01.580000 1  102             Rx   d 8 70 17 00 00 00 00 00 00
   01.590000 1  100             Rx   d 8 F0 23 32 82 0F 00 00 00
   01.590000 1  102             Rx   d 8 70 17 00 00 00 00 00 00
   01.590000 1  101             Rx   d 8 03 00 00 00 00 00 00 00
   01.600000 1  100             Rx   d 8 F0 23 32 82 00 00 00 00
   01.600000 1  102             Rx   d 8 70 17 00 00 00 00 00 00
   01.610000 1  100             Rx   d 8 F0 23 32 82 01 00 00 00
   01.610000 1  102             Rx   d 8 70 17 00 00 00 00 00 00
   01.610000 1  101             Rx   d 8 03 00 00 00 00 00 00 00
   01.610000 1  200             Rx   d 8 04 00 00 00 00 00 00 00
   01.620000 1  100             Rx   d 8 F0 23 32 82 02 00 00 00
   01.620000 1  102             Rx   d 8 70 17 00 00 00 00 00 00
   01.630000 1  100             Rx   d 8 F0 23 32 82 03 00 00 00
   01.630000 1  102             Rx   d 8 70 17 00 00 00 00 00 00
   01.630000 1  101             Rx   d 8 03 00 00 00 00 00 00 00
   01.640000 1  100             Rx   d 8 F0 23 32 82 04 00 00 00
   01.640000 1  102             Rx   d 8 70 17 00 00 00 00 00 00
   01.650000 1  100             Rx   d 8 F0 23 32 82 05 00 00 00
   01.650000 1  102             Rx   d 8 70 17 00 00 00 00 00 00
   01.650000 1  101             Rx   d 8 03 00 00 00 00 00 00 00
   01.660000 1  100             Rx   d 8 F0 23 32 82 06 00 00 00
   01.660000 1  102             Rx   d 8 70 17 00 00 00 00 00 00
   01.670000 1  100             Rx   d 8 F0 23 32 82 07 00 00 00
   01.670000 1  102             Rx   d 8 70 17 00 00 00 00 00 00
   01.670000 1  101             Rx   d 8 03 00 00 00 00 00 00 00
   01.680000 1  100             Rx   d 8 F0 23 32 82 08 00 00 00
   01.680000 1  102             Rx   d 8 70 17 00 00 00 00 00 00
   01.690000 1  100             Rx   d 8 F0 23 32 82 09 00 00 00
   01.690000 1  102             Rx   d 8 70 17 00 00 00 00 00 00
   01.690000 1  101             Rx   d 8 03 00 00 00 00 00 00 00
   01.700000 1  100             Rx   d 8 F0 23 32 82 0A 00 00 00
   01.700000 1  102             Rx   d 8 70 17 00 00 00 00 00 00
   01.710000 1  100             Rx   d 8 F0 23 32 82 0B 00 00 00
   01.710000 1  102             Rx   d 8 70 17 00 00 00 00 00 00
   01.710000 1  101             Rx   d 8 03 00 00 00 00 00 00 00
   01.710000 1  200             Rx   d 8 04 00 00 00 00 00 00 00
   01.720000 1  100             Rx   d 8 F0 23 32 82 0C 00 00 00
   01.720000 1  102             Rx   d 8 70 17 00 00 00 00 00 00
   01.730000 1  100             Rx   d 8 F0 23 32 82 0D 00 00 00
   01.730000 1  102             Rx   d 8 70 17 00 00 00 00 00 00
   01.730000 1  101             Rx   d 8 03 00 00 00 00 00 00 00
   01.740000 1  100             Rx   d 8 F0 23 32 82 0E 00 00 00
   01.740000 1  102             Rx   d 8 70 17 00 00 00 00 00 00
   01.750000 1  100             Rx   d 8 F0 23 32 82 0F 00 00 00
   01.750000 1  102             Rx   d 8 70 17 00 00 00 00 00 00
   01.750000 1  101             Rx   d 8 03 00 00 00 00 00 00 00
   01.760000 1  100             Rx   d 8 F0 23 32 82 00 00 00 00
   01.760000 1  102             Rx   d 8 70 17 00 00 00 00 00 00
   01.770000 1  100             Rx   d 8 F0 23 32 82 01 00 00 00
   01.770000 1  102             Rx   d 8 70 17 00 00 00 00 00 00
   01.770000 1  101             Rx   d 8 03 00 00 00 00 00 00 00
   01.780000 1  100             Rx   d 8 F0 23 32 82 02 00 00 00
   01.780000 1  102             Rx   d 8 70 17 00 00 00 00 00 00
   01.790000 1  100             Rx   d 8 F0 23 32 82 03 00 00 00
   01.790000 1  102             Rx   d 8 70 17 00 00 00 00 00 00
   01.790000 1  101             Rx   d 8 03 00 00 00 00 00 00 00
   01.800000 1  100             Rx   d 8 F0 23 32 82 04 00 00 00
   01.800000 1  102             Rx   d 8 70 17 00 00 00 00 00 00
   01.810000 1  100             Rx   d 8 F0 23 32 82 05 00 00 00
   01.810000 1  102             Rx   d 8 70 17 00 00 00 00 00 00
   01.810000 1  101             Rx   d 8 03 00 00 00 00 00 00 00
   01.810000 1  200             Rx   d 8 04 00 00 00 00 00 00 00
   01.820000 1  100             Rx   d 8 F0 23 32 82 06 00 00 00
   01.820000 1  102             Rx   d 8 70 17 00 00 00 00 00 00
   01.830000 1  100             Rx   d 8 F0 23 32 82 07 00 00 00
   01.830000 1  102             Rx   d 8 70 17 00 00 00 00 00 00
   01.830000 1  101             Rx   d 8 03 00 00 00 00 00 00 00
   01.840000 1  100             Rx   d 8 F0 23 32 82 08 00 00 00
   01.840000 1  102             Rx   d 8 70 17 00 00 00 00 00 00
   01.850000 1  100             Rx   d 8 F0 23 32 82 09 00 00 00
   01.850000 1  102             Rx   d 8 70 17 00 00 00 00 00 00
   01.850000 1  101             Rx   d 8 03 00 00 00 00 00 00 00
   01.860000 1  100             Rx   d 8 F0 23 32 82 0A 00 00 00
   01.860000 1  102             Rx   d 8 70 17 00 00 00 00 00 00
   01.870000 1  100             Rx   d 8 F0 23 32 82 0B 00 00 00
   01.870000 1  102             Rx   d 8 70 17 00 00 00 00 00 00
   01.870000 1  101             Rx   d 8 03 00 00 00 00 00 00 00
   01.880000 1  100             Rx   d 8 F0 23 32 82 0C 00 00 00
   01.880000 1  102             Rx   d 8 70 17 00 00 00 00 00 00
   01.890000 1  100             Rx   d 8 F0 23 32 82 0D 00 00 00
   01.890000 1  102             Rx   d 8 70 17 00 00 00 00 00 00
   01.890000 1  101             Rx   d 8 03 00 00 00 00 00 00 00
   01.900000 1  100             Rx   d 8 F0 23 32 82 0E 00 00 00
   01.900000 1  102             Rx   d 8 70 17 00 00 00 00 00 00
   01.910000 1  100             Rx   d 8 F0 23 32 82 0F 00 00 00
   01.910000 1  102             Rx   d 8 70 17 00 00 00 00 00 00
   01.910000 1  101             Rx   d 8 03 00 00 00 00 00 00 00
   01.910000 1  200             Rx   d 8 04 00 00 00 00 00 00 00
   01.920000 1  100             Rx   d 8 F0 23 32 82 00 00 00 00
   01.920000 1  102             Rx   d 8 70 17 00 00 00 00 00 00
   01.930000 1  100             Rx   d 8 F0 23 32 82 01 00 00 00
   01.930000 1  102             Rx   d 8 70 17 00 00 00 00 00 00
   01.930000 1  101             Rx   d 8 03 00 00 00 00 00 00 00
   01.940000 1  100             Rx   d 8 F0 23 32 82 02 00 00 00
   01.940000 1  102             Rx   d 8 70 17 00 00 00 00 00 00
   01.950000 1  100             Rx   d 8 F0 23 32 82 03 00 00 00
   01.950000 1  102             Rx   d 8 70 17 00 00 00 00 00 00
   01.950000 1  101             Rx   d 8 03 00 00 00 00 00 00 00
   01.960000 1  100             Rx   d 8 F0 23 32 82 04 00 00 00
   01.960000 1  102             Rx   d 8 70 17 00 00 00 00 00 00
   01.970000 1  100             Rx   d 8 F0 23 32 82 05 00 00 00
   01.970000 1  102             Rx   d 8 70 17 00 00 00 00 00 00
   01.970000 1  101             Rx   d 8 03 00 00 00 00 00 00 00
   01.980000 1  100             Rx   d 8 F0 23 32 82 06 00 00 00
   01.980000 1  102             Rx   d 8 70 17 00 00 00 00 00 00
   01.990000 1  100             Rx   d 8 F0 23 32 82 07 00 00 00
   01.990000 1  102             Rx   d 8 70 17 00 00 00 00 00 00
   01.990000 1  101             Rx   d 8 03 00 00 00 00 00 00 00
   02.000000 1  100             Rx   d 8 F0 23 32 82 08 00 00 00
   02.000000 1  102             Rx   d 8 70 17 00 00 00 00 00 00