date Mon Aug 17 10:00:00 2026
base hex timestamps absolute
   00.010000 1  100             Rx   d 8 80 0C 32 82 01 00 00 00
   00.010000 1  102             Rx   d 8 00 00 00 00 00 00 00 00
   00.010000 1  101             Rx   d 8 01 00 00 00 00 00 00 00
   00.010000 1  200             Rx   d 8 04 00 00 00 00 00 00 00
   00.020000 1  100             Rx   d 8 A8 0C 32 82 02 00 00 00
   00.020000 1  102             Rx   d 8 28 00 00 00 00 00 00 00
   00.030000 1  100             Rx   d 8 D0 0C 32 82 03 00 00 00
   00.030000 1  102             Rx   d 8 50 00 00 00 00 00 00 00
   00.030000 1  101             Rx   d 8 01 00 00 00 00 00 00 00
   00.040000 1  100             Rx   d 8 F8 0C 32 82 04 00 00 00
   00.040000 1  102             Rx   d 8 78 00 00 00 00 00 00 00
   00.050000 1  100             Rx   d 8 20 0D 32 82 05 00 00 00
   00.050000 1  102             Rx   d 8 A0 00 00 00 00 00 00 00
   00.050000 1  101             Rx   d 8 01 00 00 00 00 00 00 00
   00.060000 1  100             Rx   d 8 48 0D 32 82 06 00 00 00
   00.060000 1  102             Rx   d 8 C8 00 00 00 00 00 00 00
   00.070000 1  100             Rx   d 8 70 0D 32 82 07 00 00 00
   00.070000 1  102             Rx   d 8 F0 00 00 00 00 00 00 00
   00.070000 1  101             Rx   d 8 01 00 00 00 00 00 00 00
   00.080000 1  100             Rx   d 8 98 0D 32 82 08 00 00 00
   00.080000 1  102             Rx   d 8 18 01 00 00 00 00 00 00
   00.090000 1  100             Rx   d 8 C0 0D 32 82 09 00 00 00
   00.090000 1  102             Rx   d 8 40 01 00 00 00 00 00 00
   00.090000 1  101             Rx   d 8 01 00 00 00 00 00 00 00
   00.100000 1  100             Rx   d 8 E8 0D 32 82 0A 00 00 00
   00.100000 1  102             Rx   d 8 68 01 00 00 00 00 00 00
   00.110000 1  100             Rx   d 8 10 0E 32 82 0B 00 00 00
   00.110000 1  102             Rx   d 8 90 01 00 00 00 00 00 00
   00.110000 1  101             Rx   d 8 01 00 00 00 00 00 00 00
   00.110000 1  200             Rx   d 8 04 00 00 00 00 00 00 00
   00.120000 1  100             Rx   d 8 38 0E 32 82 0C 00 00 00
   00.120000 1  102             Rx   d 8 B8 01 00 00 00 00 00 00
   00.130000 1  100             Rx   d 8 60 0E 32 82 0D 00 00 00
   00.130000 1  102             Rx   d 8 E0 01 00 00 00 00 00 00
   00.130000 1  101             Rx   d 8 01 00 00 00 00 00 00 00
   00.140000 1  100             Rx   d 8 88 0E 32 82 0E 00 00 00
   00.140000 1  102             Rx   d 8 08 02 00 00 00 00 00 00
   00.150000 1  100             Rx   d 8 B0 0E 32 82 0F 00 00 00
   00.450000 1  100             Rx   d 8 70 17 19 82 00 00 00 00
   00.490000 1  100             Rx   d 8 70 17 19 82 01 00 00 00
   00.530000 1  100             Rx   d 8 70 17 19 82 02 00 00 00
   00.570000 1  100             Rx   d 8 70 17 19 82 03 00 00 00
   00.610000 1  100             Rx   d 8 70 17 19 82 04 00 00 00
   00.650000 1  100             Rx   d 8 70 17 19 82 05 00 00 00
   00.690000 1  100             Rx   d 8 70 17 19 82 06 00 00 00
   00.730000 1  100             Rx   d 8 70 17 19 82 07 00 00 00
   00.770000 1  100             Rx   d 8 70 17 19 82 08 00 00 00
   00.810000 1  100             Rx   d 8 70 17 19 82 09 00 00 00
   00.850000 1  100             Rx   d 8 70 17 19 82 0A 00 00 00
   00.890000 1  100             Rx   d 8 70 17 19 82 0B 00 00 00
   00.930000 1  100             Rx   d 8 70 17 19 82 0C 00 00 00
   00.970000 1  100             Rx   d 8 70 17 19 82 0D 00 00 00
   01.010000 1  100             Rx   d 8 70 17 19 82 0E 00 00 00
   01.050000 1  100             Rx   d 8 70 17 19 82 0F 00 00 00
   01.090000 1  100             Rx   d 8 70 17 19 82 00 00 00 00
   01.130000 1  100             Rx   d 8 70 17 19 82 01 00 00 00
   01.170000 1  100             Rx   d 8 70 17 19 82 02 00 00 00
   01.210000 1  100             Rx   d 8 70 17 19 82 03 00 00 00
   01.250000 1  100             Rx   d 8 70 17 19 82 04 00 00 00
   01.290000 1  100             Rx   d 8 70 17 19 82 05 00 00 00
   01.330000 1  100             Rx   d 8 70 17 19 82 06 00 00 00
   01.370000 1  100             Rx   d 8 70 17 19 82 07 00 00 00
   01.410000 1  100             Rx   d 8 70 17 19 82 08 00 00 00
   01.450000 1  100             Rx   d 8 70 17 19 82 09 00 00 00
   01.490000 1  100             Rx   d 8 70 17 19 82 0A 00 00 00
   01.530000 1  100             Rx   d 8 70 17 19 82 0B 00 00 00
   01.570000 1  100             Rx   d 8 70 17 19 82 0C 00 00 00
   01.610000 1  100             Rx   d 8 70 17 19 82 0D 00 00 00
   01.650000 1  100             Rx   d 8 70 17 19 82 0E 00 00 00
   01.690000 1  100             Rx   d 8 70 17 19 82 0F 00 00 00
   01.730000 1  100             Rx   d 8 70 17 19 82 00 00 00 00
   01.770000 1  100             Rx   d 8 70 17 19 82 01 00 00 00
   01.810000 1  100             Rx   d 8 70 17 19 82 02 00 00 00
   01.850000 1  100             Rx   d 8 70 17 19 82 03 00 00 00
   01.890000 1  100             Rx   d 8 70 17 19 82 04 00 00 00
   01.930000 1  100             Rx   d 8 70 17 19 82 05 00 00 00
   01.970000 1  100             Rx   d 8 70 17 19 82 06 00 00 00
   02.010000 1  100             Rx   d 8 70 17 19 82 07 00 00 00
   02.050000 1  100             Rx   d 8 70 17 19 82 08 00 00 00
   02.090000 1  100             Rx   d 8 70 17 19 82 09 00 00 00
   02.130000 1  100             Rx   d 8 70 17 19 82 0A 00 00 00
   02.170000 1  100             Rx   d 8 70 17 19 82 0B 00 00 00
   02.210000 1  100             Rx   d 8 70 17 19 82 0C 00 00 00
   02.250000 1  100             Rx   d 8 70 17 19 82 0D 00 00 00
   02.290000 1  100             Rx   d 8 70 17 19 82 0E 00 00 00
   02.330000 1  100             Rx   d 8 70 17 19 82 0F 00 00 00
   02.370000 1  100             Rx   d 8 70 17 19 82 00 00 00 00
   02.410000 1  100             Rx   d 8 70 17 19 82 01 00 00 00
   02.450000 1  100             Rx   d 8 70 17 19 82 02 00 00 00
   02.490000 1  100             Rx   d 8 70 17 19 82 03 00 00 00
   02.530000 1  100             Rx   d 8 70 17 19 82 04 00 00 00
   02.570000 1  100             Rx   d 8 70 17 19 82 05 00 00 00
   02.610000 1  100             Rx   d 8 70 17 19 82 06 00 00 00
   02.650000 1  100             Rx   d 8 70 17 19 82 07 00 00 00
   02.690000 1  100             Rx   d 8 70 17 19 82 08 00 00 00
   02.730000 1  100             Rx   d 8 70 17 19 82 09 00 00 00
   02.770000 1  100             Rx   d 8 70 17 19 82 0A 00 00 00
   02.810000 1  100             Rx   d 8 70 17 19 82 0B 00 00 00
   02.850000 1  100             Rx   d 8 70 17 19 82 0C 00 00 00
   02.890000 1  100             Rx   d 8 70 17 19 82 0D 00 00 00
   02.930000 1  100             Rx   d 8 70 17 19 82 0E 00 00 00
   02.970000 1  100             Rx   d 8 70 17 19 82 0F 00 00 00
   03.010000 1  100             Rx   d 8 70 17 19 82 00 00 00 00
   03.050000 1  100             Rx   d 8 70 17 19 82 01 00 00 00
   03.090000 1  100             Rx   d 8 70 17 19 82 02 00 00 00
   03.130000 1  100             Rx   d 8 70 17 19 82 03 00 00 00
   03.170000 1  100             Rx   d 8 70 17 19 82 04 00 00 00
   03.210000 1  100             Rx   d 8 70 17 19 82 05 00 00 00
   03.250000 1  100             Rx   d 8 70 17 19 82 06 00 00 00
   03.290000 1  100             Rx   d 8 70 17 19 82 07 00 00 00
   03.330000 1  100             Rx   d 8 70 17 19 82 08 00 00 00
   03.370000 1  100             Rx   d 8 70 17 19 82 09 00 00 00
   03.410000 1  100             Rx   d 8 70 17 19 82 0A 00 00 00
   03.450000 1  100             Rx   d 8 70 17 19 82 0B 00 00 00
   03.490000 1  100             Rx   d 8 70 17 19 82 0C 00 00 00
   03.530000 1  100             Rx   d 8 70 17 19 82 0D 00 00 00
   03.570000 1  100             Rx   d 8 70 17 19 82 0E 00 00 00
   03.610000 1  100             Rx   d 8 70 17 19 82 0F 00 00 00
   03.650000 1  100             Rx   d 8 70 17 19 82 00 00 00 00
   03.690000 1  100             Rx   d 8 70 17 19 82 01 00 00 00
   03.730000 1  100             Rx   d 8 70 17 19 82 02 00 00 00
   03.770000 1  100             Rx   d 8 70 17 19 82 03 00 00 00
   03.810000 1  100             Rx   d 8 70 17 19 82 04 00 00 00
   03.850000 1  100             Rx   d 8 70 17 19 82 05 00 00 00
   03.890000 1  100             Rx   d 8 70 17 19 82 06 00 00 00
   03.930000 1  100             Rx   d 8 70 17 19 82 07 00 00 00
   03.970000 1  100             Rx   d 8 70 17 19 82 08 00 00 00
   04.010000 1  100             Rx   d 8 70 17 19 82 09 00 00 00
   04.050000 1  100             Rx   d 8 70 17 19 82 0A 00 00 00
   04.090000 1  100             Rx   d 8 70 17 19 82 0B 00 00 00
   04.130000 1  100             Rx   d 8 70 17 19 82 0C 00 00 00
   04.170000 1  100             Rx   d 8 70 17 19 82 0D 00 00 00
   04.210000 1  100             Rx   d 8 70 17 19 82 0E 00 00 00
   04.250000 1  100             Rx   d 8 70 17 19 82 0F 00 00 00
   04.290000 1  100             Rx   d 8 70 17 19 82 00 00 00 00
   04.330000 1  100             Rx   d 8 70 17 19 82 01 00 00 00
   04.370000 1  100             Rx   d 8 70 17 19 82 02 00 00 00
   04.410000 1  100             Rx   d 8 70 17 19 82 03 00 00 00